T1FF8 84051:692 SEGGER J-Link V6.32i Log File (0001ms, 74061ms total)
T1FF8 84051:692 DLL Compiled: Jul 24 2018 15:19:55 (0001ms, 74061ms total)
T1FF8 84051:692 Logging started @ 2019-05-08 15:26 (0001ms, 74061ms total)
T1FF8 84051:693 JLINK_SetWarnOutHandler(...) (0000ms, 74061ms total)
T1FF8 84051:693 JLINK_OpenEx(...)
Firmware: J-Link V9 compiled Apr 20 2018 16:47:26
Hardware: V9.40
S/N: 36410082
Feature(s): RDI, GDB, FlashDL, FlashBP, JFlash
TELNET listener socket opened on port 19021WEBSRV 
Starting webserver (0026ms, 74087ms total)
T1FF8 84051:693 WEBSRV Webserver running on local port 19080 (0026ms, 74087ms total)
T1FF8 84051:693   returns O.K. (0026ms, 74087ms total)
T1FF8 84051:719 JLINK_GetEmuCaps()  returns 0xB9FF7BBF (0000ms, 74087ms total)
T1FF8 84051:720 JLINK_TIF_GetAvailable(...) (0001ms, 74088ms total)
T1FF8 84051:721 JLINK_SetErrorOutHandler(...) (0000ms, 74088ms total)
T1FF8 84051:721 JLINK_ExecCommand("ProjectFile = "D:\Document\Documents\cubemx project\uart_dma\MDK-ARM\JLinkSettings.ini"", ...).   returns 0x00 (0001ms, 74089ms total)
T1FF8 84051:722 JLINK_ExecCommand("Device = STM32L053C8Tx", ...). Device "STM32L053C8" selected.  returns 0x00 (0001ms, 74090ms total)
T1FF8 84051:723 JLINK_ExecCommand("DisableConnectionTimeout", ...).   returns 0x01 (0000ms, 74090ms total)
T1FF8 84051:723 JLINK_GetHardwareVersion()  returns 0x16F30 (0000ms, 74090ms total)
T1FF8 84051:723 JLINK_GetDLLVersion()  returns 63209 (0000ms, 74090ms total)
T1FF8 84051:723 JLINK_GetFirmwareString(...) (0000ms, 74090ms total)
T1FF8 84051:723 JLINK_GetDLLVersion()  returns 63209 (0000ms, 74090ms total)
T1FF8 84051:723 JLINK_GetCompileDateTime() (0000ms, 74090ms total)
T1FF8 84051:723 JLINK_GetFirmwareString(...) (0000ms, 74090ms total)
T1FF8 84051:723 JLINK_GetHardwareVersion()  returns 0x16F30 (0000ms, 74090ms total)
T1FF8 84051:723 JLINK_TIF_Select(JLINKARM_TIF_SWD)  returns 0x00 (0004ms, 74094ms total)
T1FF8 84051:727 JLINK_SetSpeed(5000) (0001ms, 74095ms total)
T1FF8 84051:728 JLINK_GetId() >0x10B TIF>Found SW-DP with ID 0x0BC11477 >0x0D TIF> >0x28 TIF> >0x0D TIF> >0x28 TIF> >0x0D TIF> >0x28 TIF> >0x0D TIF> >0x28 TIF> >0x0D TIF> >0x21 TIF> >0x0D TIF> >0x28 TIF> >0x0D TIF> >0x28 TIF> >0x0D TIF> >0x28 TIF> >0x0D TIF> >0x21 TIF> >0x0D TIF> >0x21 TIF> >0x0D TIF> >0x28 TIF> >0x0D TIF> >0x21 TIF> >0x0D TIF> >0x21 TIF> >0x0D TIF> >0x28 TIF> >0x0D TIF> >0x21 TIF> >0x0D TIF> >0x21 TIF> >0x0D TIF> >0x28 TIF> >0x0D TIF> >0x28 TIF> >0x0D TIF> >0x28 TIF> >0x0D TIF>
 >0x21 TIF> >0x0D TIF> >0x21 TIF> >0x0D TIF> >0x28 TIF> >0x0D TIF> >0x28 TIF> >0x0D TIF> >0x28 TIF> >0x0D TIF> >0x21 TIF> >0x0D TIF> >0x21 TIF> >0x0D TIF> >0x28 TIF> >0x0D TIF> >0x28 TIF> >0x0D TIF> >0x28 TIF> >0x0D TIF> >0x21 TIF> >0x0D TIF> >0x21 TIF> >0x0D TIF> >0x28 TIF> >0x0D TIF> >0x21 TIF> >0x0D TIF> >0x21 TIF> >0x0D TIF> >0x28 TIF> >0x0D TIF> >0x21 TIF> >0x0D TIF> >0x21 TIF> >0x0D TIF> >0x28 TIF> >0x0D TIF> >0x21 TIF> >0x0D TIF> >0x21 TIF> >0x0D TIF> >0x28 TIF> >0x0D TIF> >0x21 TIF> >0x0D TIF>
 >0x21 TIF> >0x0D TIF> >0x28 TIF> >0x0D TIF> >0x21 TIF> >0x0D TIF> >0x21 TIF> >0x10B TIF>Found SW-DP with ID 0x0BC11477 >0x0D TIF> >0x28 TIF> >0x0D TIF> >0x28 TIF> >0x0D TIF> >0x28 TIF> >0x0D TIF> >0x28 TIF> >0x0D TIF> >0x21 TIF> >0x0D TIF> >0x28 TIF>Scanning AP map to find all available APs >0x0D TIF> >0x28 TIF> >0x0D TIF> >0x21 TIF> >0x0D TIF> >0x21 TIF> >0x0D TIF> >0x28 TIF> >0x0D TIF> >0x21 TIF> >0x0D TIF> >0x21 TIF>AP[1]: Stopped AP scan as end of AP map has been reached
AP[0]: AHB-AP (IDR: 0x04770031)Iterating through AP map to find AHB-AP to use >0x42 TIF> >0x28 TIF> >0x0D TIF> >0x28 TIF> >0x0D TIF> >0x21 TIF> >0x0D TIF> >0x21 TIF> >0x42 TIF> >0x28 TIF> >0x0D TIF> >0x28 TIF> >0x0D TIF> >0x28 TIF> >0x0D TIF> >0x21 TIF> >0x0D TIF> >0x21 TIF>AP[0]: Core foundAP[0]: AHB-AP ROM base: 0xF0000000 >0x0D TIF> >0x28 TIF> >0x0D TIF> >0x28 TIF> >0x0D TIF> >0x28 TIF> >0x0D TIF> >0x21 TIF> >0x0D TIF> >0x21 TIF>CPUID register: 0x410CC601. Implementer code: 0x41 (ARM)
Found Cortex-M0 r0p1, Little endian. -- Max. mem block: 0x00010F28 -- CPU_ReadMem(4 bytes @ 0xE000EDF0) -- CPU_WriteMem(4 bytes @ 0xE000EDF0) -- CPU_ReadMem(4 bytes @ 0xE0002000)FPUnit: 4 code (BP) slots and 0 literal slots -- CPU_ReadMem(4 bytes @ 0xE000EDFC) -- CPU_WriteMem(4 bytes @ 0xE000EDFC) -- CPU_ReadMem(4 bytes @ 0xE0001000) -- CPU_WriteMem(4 bytes @ 0xE0001000)CoreSight components:ROMTbl[0] @ F0000000 -- CPU_ReadMem(16 bytes @ 0xF0000000) -- CPU_ReadMem(16 bytes @ 0xE00FFFF0)
 -- CPU_ReadMem(16 bytes @ 0xE00FFFE0)ROMTbl[0][0]: E00FF000, CID: B105100D, PID: 000BB4C0 ROM TableROMTbl[1] @ E00FF000 -- CPU_ReadMem(16 bytes @ 0xE00FF000) -- CPU_ReadMem(16 bytes @ 0xE000EFF0) -- CPU_ReadMem(16 bytes @ 0xE000EFE0)ROMTbl[1][0]: E000E000, CID: B105E00D, PID: 000BB008 SCS -- CPU_ReadMem(16 bytes @ 0xE0001FF0) -- CPU_ReadMem(16 bytes @ 0xE0001FE0)ROMTbl[1][1]: E0001000, CID: B105E00D, PID: 000BB00A DWT -- CPU_ReadMem(16 bytes @ 0xE0002FF0) -- CPU_ReadMem(16 bytes @ 0xE0002FE0)
ROMTbl[1][2]: E0002000, CID: B105E00D, PID: 000BB00B FPB -- CPU is running -- CPU_WriteMem(4 bytes @ 0xE000EDF0) -- CPU is running -- CPU_WriteMem(4 bytes @ 0xE000EDFC)Reset: Halt core after reset via DEMCR.VC_CORERESET. >0x35 TIF>Reset: Reset device via AIRCR.SYSRESETREQ. -- CPU is running -- CPU_WriteMem(4 bytes @ 0xE000ED0C) >0x0D TIF> >0x28 TIF> -- CPU_ReadMem(4 bytes @ 0xE000EDF0) -- CPU_ReadMem(4 bytes @ 0xE000EDF0) -- CPU is running -- CPU_WriteMem(4 bytes @ 0xE000EDF0) -- CPU is running
 -- CPU_WriteMem(4 bytes @ 0xE000EDFC) -- CPU_ReadMem(4 bytes @ 0xE000EDF0) -- CPU_WriteMem(4 bytes @ 0xE0002000) -- CPU_ReadMem(4 bytes @ 0xE000EDFC) -- CPU_ReadMem(4 bytes @ 0xE0001000) -- CPU_WriteMem(4 bytes @ 0xE0001000) -- CPU_WriteMem(8192 bytes @ 0x20000000) >0x0D TIF> >0x21 TIF>  returns 0x0BC11477 (0382ms, 74477ms total)
T1FF8 84052:110 JLINK_GetDLLVersion()  returns 63209 (0000ms, 74477ms total)
T1FF8 84052:110 JLINK_CORE_GetFound()  returns 0x60000FF (0000ms, 74477ms total)
T1FF8 84052:110 JLINK_GetDebugInfo(0x100 = JLINKARM_ROM_TABLE_ADDR_INDEX) -- Value=0xF0000000  returns 0x00 (0000ms, 74477ms total)
T1FF8 84052:110 JLINK_GetDebugInfo(0x100 = JLINKARM_ROM_TABLE_ADDR_INDEX) -- Value=0xF0000000  returns 0x00 (0000ms, 74477ms total)
T1FF8 84052:110 JLINK_GetDebugInfo(0x101 = JLINKARM_DEBUG_INFO_ETM_ADDR_INDEX) -- Value=0x00000000  returns 0x00 (0000ms, 74477ms total)
T1FF8 84052:110 JLINK_ReadMemEx(0xE0041FF0, 0x0010 Bytes, ..., Flags = 0x02000004) -- CPU_ReadMem(16 bytes @ 0xE0041FF0) - Data: 00 00 00 00 00 00 00 00 00 00 00 00 00 00 00 00  returns 0x10 (0001ms, 74478ms total)
T1FF8 84052:111 JLINK_GetDebugInfo(0x102 = JLINKARM_DEBUG_INFO_MTB_ADDR_INDEX) -- Value=0x00000000  returns 0x00 (0000ms, 74478ms total)
T1FF8 84052:111 JLINK_GetDebugInfo(0x103 = JLINKARM_DEBUG_INFO_TPIU_ADDR_INDEX) -- Value=0x00000000  returns 0x00 (0000ms, 74478ms total)
T1FF8 84052:111 JLINK_ReadMemEx(0xE0040FF0, 0x0010 Bytes, ..., Flags = 0x02000004) -- CPU_ReadMem(16 bytes @ 0xE0040FF0) - Data: 00 00 00 00 00 00 00 00 00 00 00 00 00 00 00 00  returns 0x10 (0001ms, 74479ms total)
T1FF8 84052:112 JLINK_GetDebugInfo(0x104 = JLINKARM_DEBUG_INFO_ITM_ADDR_INDEX) -- Value=0xE0000000  returns 0x00 (0000ms, 74479ms total)
T1FF8 84052:112 JLINK_GetDebugInfo(0x105 = JLINKARM_DEBUG_INFO_DWT_ADDR_INDEX) -- Value=0xE0001000  returns 0x00 (0000ms, 74479ms total)
T1FF8 84052:112 JLINK_GetDebugInfo(0x106 = JLINKARM_DEBUG_INFO_FPB_ADDR_INDEX) -- Value=0xE0002000  returns 0x00 (0000ms, 74479ms total)
T1FF8 84052:112 JLINK_GetDebugInfo(0x107 = JLINKARM_DEBUG_INFO_NVIC_ADDR_INDEX) -- Value=0xE000E000  returns 0x00 (0000ms, 74479ms total)
T1FF8 84052:112 JLINK_GetDebugInfo(0x10C = JLINKARM_DEBUG_INFO_DBG_ADDR_INDEX) -- Value=0xE000EDF0  returns 0x00 (0000ms, 74479ms total)
T1FF8 84052:112 JLINK_GetDebugInfo(0x01 = Unknown) -- Value=0x00000000  returns 0x00 (0000ms, 74479ms total)
T1FF8 84052:112 JLINK_ReadMemU32(0xE000ED00, 0x0001 Items, ...) -- CPU_ReadMem(4 bytes @ 0xE000ED00) - Data: 01 C6 0C 41  returns 0x01 (0001ms, 74480ms total)
T1FF8 84052:113 JLINK_GetDebugInfo(0x10F = JLINKARM_DEBUG_INFO_HAS_CORTEX_M_SECURITY_EXT_INDEX) -- Value=0x00000000  returns 0x00 (0000ms, 74480ms total)
T1FF8 84052:113 JLINK_SetResetType(JLINKARM_CM3_RESET_TYPE_NORMAL)  returns JLINKARM_CM3_RESET_TYPE_NORMAL (0000ms, 74480ms total)
T1FF8 84052:113 JLINK_Reset() -- CPU_ReadMem(4 bytes @ 0x20000000) -- CPU_WriteMem(4 bytes @ 0x20000000) -- CPU_WriteMem(4 bytes @ 0xE000EDF0) -- CPU_WriteMem(4 bytes @ 0xE000EDFC)Reset: Halt core after reset via DEMCR.VC_CORERESET. >0x35 TIF>Reset: Reset device via AIRCR.SYSRESETREQ. -- CPU_WriteMem(4 bytes @ 0xE000ED0C) >0x0D TIF> >0x28 TIF> -- CPU_ReadMem(4 bytes @ 0xE000EDF0) -- CPU_ReadMem(4 bytes @ 0xE000EDF0) -- CPU_WriteMem(4 bytes @ 0xE000EDF0) -- CPU_WriteMem(4 bytes @ 0xE000EDFC)
 -- CPU_ReadMem(4 bytes @ 0xE000EDF0) -- CPU_WriteMem(4 bytes @ 0xE0002000) -- CPU_ReadMem(4 bytes @ 0xE000EDFC) -- CPU_ReadMem(4 bytes @ 0xE0001000) -- CPU_WriteMem(4 bytes @ 0xE0001000) (0076ms, 74556ms total)
T1FF8 84052:189 JLINK_ReadReg(R15 (PC))  returns 0x080000D4 (0000ms, 74556ms total)
T1FF8 84052:189 JLINK_ReadReg(XPSR)  returns 0xF1000000 (0000ms, 74556ms total)
T1FF8 84052:189 JLINK_Halt()  returns 0x00 (0000ms, 74556ms total)
T1FF8 84052:189 JLINK_ReadMemU32(0xE000EDF0, 0x0001 Items, ...) -- CPU_ReadMem(4 bytes @ 0xE000EDF0) - Data: 03 00 03 00  returns 0x01 (0001ms, 74557ms total)
T1FF8 84052:190 JLINK_WriteU32(0xE000EDF0, 0xA05F0003) -- CPU_WriteMem(4 bytes @ 0xE000EDF0)  returns 0x00 (0001ms, 74558ms total)
T1FF8 84052:191 JLINK_WriteU32(0xE000EDFC, 0x01000000) -- CPU_WriteMem(4 bytes @ 0xE000EDFC)  returns 0x00 (0001ms, 74559ms total)
T1FF8 84052:192 JLINK_GetHWStatus(...)  returns 0x00 (0001ms, 74560ms total)
T1FF8 84052:193 JLINK_GetNumBPUnits(Type = 0xFFFFFF00)  returns 0x04 (0000ms, 74560ms total)
T1FF8 84052:193 JLINK_GetNumBPUnits(Type = 0xF0)  returns 0x2000 (0000ms, 74560ms total)
T1FF8 84052:193 JLINK_GetNumWPUnits()  returns 0x02 (0000ms, 74560ms total)
T1FF8 84052:193 JLINK_GetSpeed()  returns 0xFA0 (0000ms, 74560ms total)
T1FF8 84052:193 JLINK_ReadMemU32(0xE000E004, 0x0001 Items, ...) -- CPU_ReadMem(4 bytes @ 0xE000E004) - Data: 00 00 00 00  returns 0x01 (0001ms, 74561ms total)
T1FF8 84052:194 JLINK_ReadReg(R15 (PC))  returns 0x080000D4 (0000ms, 74561ms total)
T1FF8 84052:194 JLINK_ReadReg(XPSR)  returns 0xF1000000 (0000ms, 74561ms total)
T1FF8 84052:268 JLINK_SetResetType(JLINKARM_CM3_RESET_TYPE_NORMAL)  returns JLINKARM_CM3_RESET_TYPE_NORMAL (0000ms, 74561ms total)
T1FF8 84052:268 JLINK_Reset() -- CPU_WriteMem(4 bytes @ 0xE000EDF0) -- CPU_WriteMem(4 bytes @ 0xE000EDFC)Reset: Halt core after reset via DEMCR.VC_CORERESET. >0x35 TIF>Reset: Reset device via AIRCR.SYSRESETREQ. -- CPU_WriteMem(4 bytes @ 0xE000ED0C) >0x0D TIF> >0x28 TIF> -- CPU_ReadMem(4 bytes @ 0xE000EDF0) -- CPU_ReadMem(4 bytes @ 0xE000EDF0) -- CPU_WriteMem(4 bytes @ 0xE000EDF0) -- CPU_WriteMem(4 bytes @ 0xE000EDFC) -- CPU_ReadMem(4 bytes @ 0xE000EDF0) -- CPU_WriteMem(4 bytes @ 0xE0002000)
 -- CPU_ReadMem(4 bytes @ 0xE000EDFC) -- CPU_ReadMem(4 bytes @ 0xE0001000) -- CPU_WriteMem(4 bytes @ 0xE0001000) (0075ms, 74636ms total)
T1FF8 84052:343 JLINK_ReadReg(R15 (PC))  returns 0x080000D4 (0000ms, 74636ms total)
T1FF8 84052:343 JLINK_ReadReg(XPSR)  returns 0xF1000000 (0000ms, 74636ms total)
T1FF8 84052:492 JLINK_ReadMemEx(0x080000D4, 0x003C Bytes, ..., Flags = 0x02000000) -- CPU_ReadMem(128 bytes @ 0x080000C0) -- Updating C cache (128 bytes @ 0x080000C0) -- Read from C cache (60 bytes @ 0x080000D4) - Data: 04 48 80 47 04 48 00 47 FE E7 FE E7 FE E7 FE E7 ...  returns 0x3C (0001ms, 74637ms total)
T1FF8 84053:519 JLINK_ReadReg(R0)  returns 0xFFFFFFFF (0001ms, 74638ms total)
T1FF8 84053:520 JLINK_ReadReg(R1)  returns 0xFFFFFFFF (0000ms, 74638ms total)
T1FF8 84053:520 JLINK_ReadReg(R2)  returns 0xFFFFFFFF (0000ms, 74638ms total)
T1FF8 84053:520 JLINK_ReadReg(R3)  returns 0xFFFFFFFF (0000ms, 74638ms total)
T1FF8 84053:520 JLINK_ReadReg(R4)  returns 0xFFFFFFFF (0000ms, 74638ms total)
T1FF8 84053:520 JLINK_ReadReg(R5)  returns 0xFFFFFFFF (0000ms, 74638ms total)
T1FF8 84053:520 JLINK_ReadReg(R6)  returns 0xFFFFFFFF (0000ms, 74638ms total)
T1FF8 84053:520 JLINK_ReadReg(R7)  returns 0xFFFFFFFF (0000ms, 74638ms total)
T1FF8 84053:520 JLINK_ReadReg(R8)  returns 0xFFFFFFFF (0000ms, 74638ms total)
T1FF8 84053:520 JLINK_ReadReg(R9)  returns 0xFFFFFFFF (0000ms, 74638ms total)
T1FF8 84053:520 JLINK_ReadReg(R10)  returns 0xFFFFFFFF (0000ms, 74638ms total)
T1FF8 84053:520 JLINK_ReadReg(R11)  returns 0xFFFFFFFF (0000ms, 74638ms total)
T1FF8 84053:520 JLINK_ReadReg(R12)  returns 0xFFFFFFFF (0000ms, 74638ms total)
T1FF8 84053:520 JLINK_ReadReg(R13 (SP))  returns 0x20000530 (0000ms, 74638ms total)
T1FF8 84053:520 JLINK_ReadReg(R14)  returns 0xFFFFFFFF (0000ms, 74638ms total)
T1FF8 84053:520 JLINK_ReadReg(R15 (PC))  returns 0x080000D4 (0000ms, 74638ms total)
T1FF8 84053:520 JLINK_ReadReg(XPSR)  returns 0xF1000000 (0000ms, 74638ms total)
T1FF8 84053:520 JLINK_ReadReg(MSP)  returns 0x20000530 (0000ms, 74638ms total)
T1FF8 84053:520 JLINK_ReadReg(PSP)  returns 0xFFFFFFFC (0000ms, 74638ms total)
T1FF8 84053:520 JLINK_ReadReg(CFBP)  returns 0x00000000 (0000ms, 74638ms total)
T3310 84053:578 JLINK_ReadMemEx(0x080000D4, 0x0002 Bytes, ..., Flags = 0x02000000) -- Read from C cache (2 bytes @ 0x080000D4) - Data: 04 48  returns 0x02 (0000ms, 74638ms total)
T3310 84053:578 JLINK_SetBPEx(Addr = 0x080019F8, Type = 0xFFFFFFF2)  returns 0x00000001 (0000ms, 74638ms total)
T3310 84053:578 JLINK_SetBPEx(Addr = 0x08001A96, Type = 0xFFFFFFF2)  returns 0x00000002 (0000ms, 74638ms total)
T3310 84053:578 JLINK_Go() -- CPU_WriteMem(4 bytes @ 0xE0002000) -- CPU_WriteMem(4 bytes @ 0xE0002000) -- CPU_ReadMem(4 bytes @ 0xE0001000) -- CPU_WriteMem(4 bytes @ 0xE0001000) -- CPU_WriteMem(4 bytes @ 0xE0002008) -- CPU_WriteMem(4 bytes @ 0xE000200C) -- CPU_WriteMem(4 bytes @ 0xE0002010) -- CPU_WriteMem(4 bytes @ 0xE0002014) -- CPU_WriteMem(4 bytes @ 0xE0001004) (0007ms, 74645ms total)
T3310 84053:685 JLINK_IsHalted()  returns TRUE (0003ms, 74648ms total)
T3310 84053:688 JLINK_Halt()  returns 0x00 (0000ms, 74645ms total)
T3310 84053:688 JLINK_IsHalted()  returns TRUE (0000ms, 74645ms total)
T3310 84053:688 JLINK_IsHalted()  returns TRUE (0000ms, 74645ms total)
T3310 84053:688 JLINK_IsHalted()  returns TRUE (0000ms, 74645ms total)
T3310 84053:688 JLINK_ReadReg(R15 (PC))  returns 0x080019F8 (0000ms, 74645ms total)
T3310 84053:688 JLINK_ReadReg(XPSR)  returns 0x61000000 (0000ms, 74645ms total)
T3310 84053:688 JLINK_ClrBPEx(BPHandle = 0x00000001)  returns 0x00 (0000ms, 74645ms total)
T3310 84053:688 JLINK_ClrBPEx(BPHandle = 0x00000002)  returns 0x00 (0000ms, 74645ms total)
T3310 84053:688 JLINK_ReadMemU32(0xE000ED30, 0x0001 Items, ...) -- CPU_ReadMem(4 bytes @ 0xE000ED30) - Data: 02 00 00 00  returns 0x01 (0001ms, 74646ms total)
T3310 84053:689 JLINK_ReadMemU32(0xE0001028, 0x0001 Items, ...) -- CPU_ReadMem(4 bytes @ 0xE0001028) - Data: 00 00 00 00  returns 0x01 (0001ms, 74647ms total)
T3310 84053:690 JLINK_ReadMemU32(0xE0001038, 0x0001 Items, ...) -- CPU_ReadMem(4 bytes @ 0xE0001038) - Data: 00 00 00 00  returns 0x01 (0001ms, 74648ms total)
T3310 84053:691 JLINK_ReadReg(R0)  returns 0x080019F9 (0000ms, 74648ms total)
T3310 84053:691 JLINK_ReadReg(R1)  returns 0x20000530 (0000ms, 74648ms total)
T3310 84053:691 JLINK_ReadReg(R2)  returns 0x00000000 (0000ms, 74648ms total)
T3310 84053:691 JLINK_ReadReg(R3)  returns 0x080019EB (0000ms, 74648ms total)
T3310 84053:691 JLINK_ReadReg(R4)  returns 0x08001B2C (0000ms, 74648ms total)
T3310 84053:691 JLINK_ReadReg(R5)  returns 0x00000001 (0000ms, 74648ms total)
T3310 84053:691 JLINK_ReadReg(R6)  returns 0x08001B2C (0000ms, 74648ms total)
T3310 84053:691 JLINK_ReadReg(R7)  returns 0xFFFFFFFF (0000ms, 74648ms total)
T3310 84053:691 JLINK_ReadReg(R8)  returns 0xFFFFFFFF (0000ms, 74648ms total)
T3310 84053:691 JLINK_ReadReg(R9)  returns 0xFFFFFFFF (0000ms, 74648ms total)
T3310 84053:691 JLINK_ReadReg(R10)  returns 0xFFFFFFFF (0000ms, 74648ms total)
T3310 84053:691 JLINK_ReadReg(R11)  returns 0xFFFFFFFF (0000ms, 74648ms total)
T3310 84053:691 JLINK_ReadReg(R12)  returns 0xFFFFFFFF (0000ms, 74648ms total)
T3310 84053:691 JLINK_ReadReg(R13 (SP))  returns 0x20000530 (0000ms, 74648ms total)
T3310 84053:691 JLINK_ReadReg(R14)  returns 0x08000201 (0000ms, 74648ms total)
T3310 84053:691 JLINK_ReadReg(R15 (PC))  returns 0x080019F8 (0000ms, 74648ms total)
T3310 84053:691 JLINK_ReadReg(XPSR)  returns 0x61000000 (0000ms, 74648ms total)
T3310 84053:691 JLINK_ReadReg(MSP)  returns 0x20000530 (0000ms, 74648ms total)
T3310 84053:691 JLINK_ReadReg(PSP)  returns 0xFFFFFFFC (0000ms, 74648ms total)
T3310 84053:691 JLINK_ReadReg(CFBP)  returns 0x00000000 (0000ms, 74648ms total)
T1FF8 84053:696 JLINK_ReadMemEx(0x080019F8, 0x003C Bytes, ..., Flags = 0x02000000) -- CPU_ReadMem(128 bytes @ 0x080019C0) -- Updating C cache (128 bytes @ 0x080019C0) -- Read from C cache (60 bytes @ 0x080019F8) - Data: 86 B0 FE F7 13 FE FF F7 0F FD 14 21 68 46 FE F7 ...  returns 0x3C (0001ms, 74649ms total)
T3310 84061:595 JLINK_ReadMemEx(0x080019F8, 0x0002 Bytes, ..., Flags = 0x02000000) -- Read from C cache (2 bytes @ 0x080019F8) - Data: 86 B0  returns 0x02 (0000ms, 74649ms total)
T3310 84061:595 JLINK_SetBPEx(Addr = 0x08001A96, Type = 0xFFFFFFF2)  returns 0x00000003 (0000ms, 74649ms total)
T3310 84061:595 JLINK_SetBPEx(Addr = 0x080019FA, Type = 0xFFFFFFF2)  returns 0x00000004 (0000ms, 74649ms total)
T3310 84061:595 JLINK_Go() -- CPU_WriteMem(4 bytes @ 0xE0002000) -- CPU_WriteMem(4 bytes @ 0xE0002000) -- CPU_ReadMem(4 bytes @ 0xE0001000) -- CPU_WriteMem(4 bytes @ 0xE0001000) -- CPU_WriteMem(4 bytes @ 0xE0002008) -- CPU_WriteMem(4 bytes @ 0xE000200C) (0006ms, 74655ms total)
T3310 84061:701 JLINK_IsHalted()  returns TRUE (0003ms, 74658ms total)
T3310 84061:704 JLINK_Halt()  returns 0x00 (0000ms, 74655ms total)
T3310 84061:704 JLINK_IsHalted()  returns TRUE (0000ms, 74655ms total)
T3310 84061:704 JLINK_IsHalted()  returns TRUE (0000ms, 74655ms total)
T3310 84061:704 JLINK_IsHalted()  returns TRUE (0000ms, 74655ms total)
T3310 84061:704 JLINK_ReadReg(R15 (PC))  returns 0x080019FA (0000ms, 74655ms total)
T3310 84061:704 JLINK_ReadReg(XPSR)  returns 0x61000000 (0000ms, 74655ms total)
T3310 84061:704 JLINK_ClrBPEx(BPHandle = 0x00000003)  returns 0x00 (0000ms, 74655ms total)
T3310 84061:704 JLINK_ClrBPEx(BPHandle = 0x00000004)  returns 0x00 (0000ms, 74655ms total)
T3310 84061:704 JLINK_ReadMemU32(0xE000ED30, 0x0001 Items, ...) -- CPU_ReadMem(4 bytes @ 0xE000ED30) - Data: 02 00 00 00  returns 0x01 (0002ms, 74657ms total)
T3310 84061:706 JLINK_ReadMemU32(0xE0001028, 0x0001 Items, ...) -- CPU_ReadMem(4 bytes @ 0xE0001028) - Data: 00 00 00 00  returns 0x01 (0001ms, 74658ms total)
T3310 84061:707 JLINK_ReadMemU32(0xE0001038, 0x0001 Items, ...) -- CPU_ReadMem(4 bytes @ 0xE0001038) - Data: 00 00 00 00  returns 0x01 (0001ms, 74659ms total)
T3310 84061:708 JLINK_ReadReg(R0)  returns 0x080019F9 (0000ms, 74659ms total)
T3310 84061:708 JLINK_ReadReg(R1)  returns 0x20000530 (0000ms, 74659ms total)
T3310 84061:708 JLINK_ReadReg(R2)  returns 0x00000000 (0000ms, 74659ms total)
T3310 84061:708 JLINK_ReadReg(R3)  returns 0x080019EB (0000ms, 74659ms total)
T3310 84061:708 JLINK_ReadReg(R4)  returns 0x08001B2C (0000ms, 74659ms total)
T3310 84061:708 JLINK_ReadReg(R5)  returns 0x00000001 (0000ms, 74659ms total)
T3310 84061:708 JLINK_ReadReg(R6)  returns 0x08001B2C (0000ms, 74659ms total)
T3310 84061:708 JLINK_ReadReg(R7)  returns 0xFFFFFFFF (0000ms, 74659ms total)
T3310 84061:708 JLINK_ReadReg(R8)  returns 0xFFFFFFFF (0000ms, 74659ms total)
T3310 84061:708 JLINK_ReadReg(R9)  returns 0xFFFFFFFF (0000ms, 74659ms total)
T3310 84061:708 JLINK_ReadReg(R10)  returns 0xFFFFFFFF (0000ms, 74659ms total)
T3310 84061:708 JLINK_ReadReg(R11)  returns 0xFFFFFFFF (0000ms, 74659ms total)
T3310 84061:708 JLINK_ReadReg(R12)  returns 0xFFFFFFFF (0000ms, 74659ms total)
T3310 84061:708 JLINK_ReadReg(R13 (SP))  returns 0x20000518 (0000ms, 74659ms total)
T3310 84061:708 JLINK_ReadReg(R14)  returns 0x08000201 (0000ms, 74659ms total)
T3310 84061:708 JLINK_ReadReg(R15 (PC))  returns 0x080019FA (0000ms, 74659ms total)
T3310 84061:708 JLINK_ReadReg(XPSR)  returns 0x61000000 (0000ms, 74659ms total)
T3310 84061:708 JLINK_ReadReg(MSP)  returns 0x20000518 (0000ms, 74659ms total)
T3310 84061:708 JLINK_ReadReg(PSP)  returns 0xFFFFFFFC (0000ms, 74659ms total)
T3310 84061:708 JLINK_ReadReg(CFBP)  returns 0x00000000 (0000ms, 74659ms total)
T1FF8 84061:715 JLINK_ReadMemEx(0x080019FA, 0x0002 Bytes, ..., Flags = 0x02000000) -- CPU_ReadMem(64 bytes @ 0x080019C0) -- Updating C cache (64 bytes @ 0x080019C0) -- Read from C cache (2 bytes @ 0x080019FA) - Data: FE F7  returns 0x02 (0001ms, 74660ms total)
T1FF8 84061:716 JLINK_ReadMemEx(0x080019FC, 0x003C Bytes, ..., Flags = 0x02000000) -- CPU_ReadMem(64 bytes @ 0x08001A00) -- Updating C cache (64 bytes @ 0x08001A00) -- Read from C cache (60 bytes @ 0x080019FC) - Data: 13 FE FF F7 0F FD 14 21 68 46 FE F7 C0 FB 28 4C ...  returns 0x3C (0001ms, 74661ms total)
T3310 84067:490 JLINK_ReadMemEx(0x080019FA, 0x0002 Bytes, ..., Flags = 0x02000000) -- Read from C cache (2 bytes @ 0x080019FA) - Data: FE F7  returns 0x02 (0000ms, 74661ms total)
T3310 84067:490 JLINK_Step() -- Read from C cache (2 bytes @ 0x080019FA) -- CPU_ReadMem(4 bytes @ 0xE000ED18) -- CPU_WriteMem(4 bytes @ 0xE000ED18) -- CPU_ReadMem(4 bytes @ 0xE000ED18) -- CPU_WriteMem(4 bytes @ 0xE000ED18) -- CPU_ReadMem(4 bytes @ 0xE0001004) -- Read from C cache (2 bytes @ 0x080019FC) -- Simulated  returns 0x00 (0006ms, 74667ms total)
T3310 84067:496 JLINK_ReadReg(R15 (PC))  returns 0x08000624 (0000ms, 74667ms total)
T3310 84067:496 JLINK_ReadReg(XPSR)  returns 0x61000000 (0000ms, 74667ms total)
T3310 84067:496 JLINK_SetBPEx(Addr = 0x08001A96, Type = 0xFFFFFFF2)  returns 0x00000005 (0000ms, 74667ms total)
T3310 84067:496 JLINK_SetBPEx(Addr = 0x080019FA, Type = 0xFFFFFFF2)  returns 0x00000006 (0000ms, 74667ms total)
T3310 84067:496 JLINK_SetBPEx(Addr = 0x080019FE, Type = 0xFFFFFFF2)  returns 0x00000007 (0000ms, 74667ms total)
T3310 84067:496 JLINK_Go() -- CPU_WriteMem(4 bytes @ 0xE0002000) -- CPU_WriteMem(4 bytes @ 0xE0002000) -- CPU_WriteMem(4 bytes @ 0xE0002000) -- CPU_ReadMem(4 bytes @ 0xE0001000) -- CPU_WriteMem(4 bytes @ 0xE0001000) -- CPU_WriteMem(4 bytes @ 0xE0002010) -- CPU_WriteMem(4 bytes @ 0xE0001004) (0008ms, 74675ms total)
T3310 84067:604 JLINK_IsHalted()  returns TRUE (0003ms, 74678ms total)
T3310 84067:607 JLINK_Halt()  returns 0x00 (0000ms, 74675ms total)
T3310 84067:607 JLINK_IsHalted()  returns TRUE (0000ms, 74675ms total)
T3310 84067:607 JLINK_IsHalted()  returns TRUE (0000ms, 74675ms total)
T3310 84067:607 JLINK_IsHalted()  returns TRUE (0000ms, 74675ms total)
T3310 84067:607 JLINK_ReadReg(R15 (PC))  returns 0x080019FE (0000ms, 74675ms total)
T3310 84067:607 JLINK_ReadReg(XPSR)  returns 0x01000000 (0000ms, 74675ms total)
T3310 84067:607 JLINK_ClrBPEx(BPHandle = 0x00000005)  returns 0x00 (0000ms, 74675ms total)
T3310 84067:607 JLINK_ClrBPEx(BPHandle = 0x00000006)  returns 0x00 (0000ms, 74675ms total)
T3310 84067:607 JLINK_ClrBPEx(BPHandle = 0x00000007)  returns 0x00 (0000ms, 74675ms total)
T3310 84067:607 JLINK_ReadMemU32(0xE000ED30, 0x0001 Items, ...) -- CPU_ReadMem(4 bytes @ 0xE000ED30) - Data: 02 00 00 00  returns 0x01 (0001ms, 74676ms total)
T3310 84067:608 JLINK_ReadMemU32(0xE0001028, 0x0001 Items, ...) -- CPU_ReadMem(4 bytes @ 0xE0001028) - Data: 00 00 00 00  returns 0x01 (0001ms, 74677ms total)
T3310 84067:609 JLINK_ReadMemU32(0xE0001038, 0x0001 Items, ...) -- CPU_ReadMem(4 bytes @ 0xE0001038) - Data: 00 00 00 00  returns 0x01 (0001ms, 74678ms total)
T3310 84067:610 JLINK_ReadReg(R0)  returns 0x00000000 (0000ms, 74678ms total)
T3310 84067:610 JLINK_ReadReg(R1)  returns 0x10000000 (0000ms, 74678ms total)
T3310 84067:610 JLINK_ReadReg(R2)  returns 0x10000000 (0000ms, 74678ms total)
T3310 84067:610 JLINK_ReadReg(R3)  returns 0x00000000 (0000ms, 74678ms total)
T3310 84067:610 JLINK_ReadReg(R4)  returns 0x08001B2C (0000ms, 74678ms total)
T3310 84067:610 JLINK_ReadReg(R5)  returns 0x00000001 (0000ms, 74678ms total)
T3310 84067:610 JLINK_ReadReg(R6)  returns 0x08001B2C (0000ms, 74678ms total)
T3310 84067:610 JLINK_ReadReg(R7)  returns 0xFFFFFFFF (0000ms, 74678ms total)
T3310 84067:610 JLINK_ReadReg(R8)  returns 0xFFFFFFFF (0000ms, 74678ms total)
T3310 84067:610 JLINK_ReadReg(R9)  returns 0xFFFFFFFF (0000ms, 74678ms total)
T3310 84067:610 JLINK_ReadReg(R10)  returns 0xFFFFFFFF (0000ms, 74678ms total)
T3310 84067:610 JLINK_ReadReg(R11)  returns 0xFFFFFFFF (0000ms, 74678ms total)
T3310 84067:610 JLINK_ReadReg(R12)  returns 0xFFFFFFFF (0000ms, 74678ms total)
T3310 84067:610 JLINK_ReadReg(R13 (SP))  returns 0x20000518 (0000ms, 74678ms total)
T3310 84067:610 JLINK_ReadReg(R14)  returns 0x08000645 (0000ms, 74678ms total)
T3310 84067:610 JLINK_ReadReg(R15 (PC))  returns 0x080019FE (0000ms, 74678ms total)
T3310 84067:610 JLINK_ReadReg(XPSR)  returns 0x01000000 (0000ms, 74678ms total)
T3310 84067:610 JLINK_ReadReg(MSP)  returns 0x20000518 (0000ms, 74678ms total)
T3310 84067:610 JLINK_ReadReg(PSP)  returns 0xFFFFFFFC (0000ms, 74678ms total)
T3310 84067:610 JLINK_ReadReg(CFBP)  returns 0x00000000 (0000ms, 74678ms total)
T1FF8 84067:612 JLINK_ReadMemEx(0x080019FE, 0x0002 Bytes, ..., Flags = 0x02000000) -- CPU_ReadMem(64 bytes @ 0x080019C0) -- Updating C cache (64 bytes @ 0x080019C0) -- Read from C cache (2 bytes @ 0x080019FE) - Data: FF F7  returns 0x02 (0001ms, 74679ms total)
T1FF8 84067:613 JLINK_ReadMemEx(0x08001A00, 0x003C Bytes, ..., Flags = 0x02000000) -- CPU_ReadMem(64 bytes @ 0x08001A00) -- Updating C cache (64 bytes @ 0x08001A00) -- Read from C cache (60 bytes @ 0x08001A00) - Data: 0F FD 14 21 68 46 FE F7 C0 FB 28 4C E0 6A 01 25 ...  returns 0x3C (0001ms, 74680ms total)
T3310 84073:210 JLINK_ReadMemEx(0x080019FE, 0x0002 Bytes, ..., Flags = 0x02000000) -- Read from C cache (2 bytes @ 0x080019FE) - Data: FF F7  returns 0x02 (0000ms, 74680ms total)
T3310 84073:210 JLINK_Step() -- Read from C cache (2 bytes @ 0x080019FE) -- CPU_ReadMem(4 bytes @ 0xE0001004) -- Read from C cache (2 bytes @ 0x08001A00) -- Simulated  returns 0x00 (0002ms, 74682ms total)
T3310 84073:212 JLINK_ReadReg(R15 (PC))  returns 0x08001420 (0000ms, 74682ms total)
T3310 84073:212 JLINK_ReadReg(XPSR)  returns 0x01000000 (0000ms, 74682ms total)
T3310 84073:212 JLINK_SetBPEx(Addr = 0x08001A96, Type = 0xFFFFFFF2)  returns 0x00000008 (0000ms, 74682ms total)
T3310 84073:212 JLINK_SetBPEx(Addr = 0x080019FA, Type = 0xFFFFFFF2)  returns 0x00000009 (0000ms, 74682ms total)
T3310 84073:212 JLINK_SetBPEx(Addr = 0x080019FE, Type = 0xFFFFFFF2)  returns 0x0000000A (0000ms, 74682ms total)
T3310 84073:212 JLINK_SetBPEx(Addr = 0x08001A58, Type = 0xFFFFFFF2)  returns 0x0000000B (0000ms, 74682ms total)
T3310 84073:212 JLINK_Go() -- CPU_WriteMem(4 bytes @ 0xE0002000) -- CPU_WriteMem(4 bytes @ 0xE0002000) -- CPU_WriteMem(4 bytes @ 0xE0002000) -- CPU_WriteMem(4 bytes @ 0xE0002000) -- CPU_ReadMem(4 bytes @ 0xE0001000) -- CPU_WriteMem(4 bytes @ 0xE0001000) -- CPU_WriteMem(4 bytes @ 0xE0002014) -- CPU_WriteMem(4 bytes @ 0xE0001004) (0009ms, 74691ms total)
T3310 84073:322 JLINK_IsHalted()  returns TRUE (0003ms, 74695ms total)
T3310 84073:325 JLINK_Halt()  returns 0x00 (0000ms, 74692ms total)
T3310 84073:325 JLINK_IsHalted()  returns TRUE (0000ms, 74692ms total)
T3310 84073:325 JLINK_IsHalted()  returns TRUE (0000ms, 74692ms total)
T3310 84073:325 JLINK_IsHalted()  returns TRUE (0000ms, 74692ms total)
T3310 84073:325 JLINK_ReadReg(R15 (PC))  returns 0x08001A58 (0000ms, 74692ms total)
T3310 84073:325 JLINK_ReadReg(XPSR)  returns 0x01000000 (0000ms, 74692ms total)
T3310 84073:325 JLINK_ClrBPEx(BPHandle = 0x00000008)  returns 0x00 (0000ms, 74692ms total)
T3310 84073:325 JLINK_ClrBPEx(BPHandle = 0x00000009)  returns 0x00 (0000ms, 74692ms total)
T3310 84073:325 JLINK_ClrBPEx(BPHandle = 0x0000000A)  returns 0x00 (0000ms, 74692ms total)
T3310 84073:325 JLINK_ClrBPEx(BPHandle = 0x0000000B)  returns 0x00 (0000ms, 74692ms total)
T3310 84073:325 JLINK_ReadMemU32(0xE000ED30, 0x0001 Items, ...) -- CPU_ReadMem(4 bytes @ 0xE000ED30) - Data: 02 00 00 00  returns 0x01 (0001ms, 74693ms total)
T3310 84073:326 JLINK_ReadMemU32(0xE0001028, 0x0001 Items, ...) -- CPU_ReadMem(4 bytes @ 0xE0001028) - Data: 00 00 00 00  returns 0x01 (0001ms, 74694ms total)
T3310 84073:327 JLINK_ReadMemU32(0xE0001038, 0x0001 Items, ...) -- CPU_ReadMem(4 bytes @ 0xE0001038) - Data: 00 00 00 00  returns 0x01 (0001ms, 74695ms total)
T3310 84073:328 JLINK_ReadReg(R0)  returns 0x00000800 (0000ms, 74695ms total)
T3310 84073:328 JLINK_ReadReg(R1)  returns 0xE000E100 (0000ms, 74695ms total)
T3310 84073:328 JLINK_ReadReg(R2)  returns 0xFF000000 (0000ms, 74695ms total)
T3310 84073:328 JLINK_ReadReg(R3)  returns 0xE000E408 (0000ms, 74695ms total)
T3310 84073:328 JLINK_ReadReg(R4)  returns 0x40021000 (0000ms, 74695ms total)
T3310 84073:328 JLINK_ReadReg(R5)  returns 0x00000001 (0000ms, 74695ms total)
T3310 84073:328 JLINK_ReadReg(R6)  returns 0x00000100 (0000ms, 74695ms total)
T3310 84073:328 JLINK_ReadReg(R7)  returns 0x50000000 (0000ms, 74695ms total)
T3310 84073:328 JLINK_ReadReg(R8)  returns 0xFFFFFFFF (0000ms, 74695ms total)
T3310 84073:328 JLINK_ReadReg(R9)  returns 0xFFFFFFFF (0000ms, 74695ms total)
T3310 84073:328 JLINK_ReadReg(R10)  returns 0xFFFFFFFF (0000ms, 74695ms total)
T3310 84073:328 JLINK_ReadReg(R11)  returns 0xFFFFFFFF (0000ms, 74695ms total)
T3310 84073:328 JLINK_ReadReg(R12)  returns 0xEBFCFCFF (0000ms, 74695ms total)
T3310 84073:328 JLINK_ReadReg(R13 (SP))  returns 0x20000518 (0000ms, 74695ms total)
T3310 84073:328 JLINK_ReadReg(R14)  returns 0x08001A59 (0000ms, 74695ms total)
T3310 84073:328 JLINK_ReadReg(R15 (PC))  returns 0x08001A58 (0000ms, 74695ms total)
T3310 84073:328 JLINK_ReadReg(XPSR)  returns 0x01000000 (0000ms, 74695ms total)
T3310 84073:328 JLINK_ReadReg(MSP)  returns 0x20000518 (0000ms, 74695ms total)
T3310 84073:328 JLINK_ReadReg(PSP)  returns 0xFFFFFFFC (0000ms, 74695ms total)
T3310 84073:328 JLINK_ReadReg(CFBP)  returns 0x00000000 (0000ms, 74695ms total)
T1FF8 84073:333 JLINK_ReadMemEx(0x08001A58, 0x003C Bytes, ..., Flags = 0x02000000) -- CPU_ReadMem(128 bytes @ 0x08001A40) -- Updating C cache (128 bytes @ 0x08001A40) -- Read from C cache (60 bytes @ 0x08001A58) - Data: FF F7 A0 FC 14 48 00 68 01 68 10 22 11 43 01 60 ...  returns 0x3C (0001ms, 74696ms total)
T3310 84079:073 JLINK_ReadMemEx(0x08001A58, 0x0002 Bytes, ..., Flags = 0x02000000) -- Read from C cache (2 bytes @ 0x08001A58) - Data: FF F7  returns 0x02 (0000ms, 74696ms total)
T3310 84079:073 JLINK_Step() -- Read from C cache (2 bytes @ 0x08001A58) -- CPU_ReadMem(4 bytes @ 0xE0001004) -- Read from C cache (2 bytes @ 0x08001A5A) -- Simulated  returns 0x00 (0003ms, 74699ms total)
T3310 84079:076 JLINK_ReadReg(R15 (PC))  returns 0x0800139C (0000ms, 74699ms total)
T3310 84079:076 JLINK_ReadReg(XPSR)  returns 0x01000000 (0000ms, 74699ms total)
T3310 84079:076 JLINK_SetBPEx(Addr = 0x08001A96, Type = 0xFFFFFFF2)  returns 0x0000000C (0000ms, 74699ms total)
T3310 84079:076 JLINK_SetBPEx(Addr = 0x080019FA, Type = 0xFFFFFFF2)  returns 0x0000000D (0000ms, 74699ms total)
T3310 84079:076 JLINK_SetBPEx(Addr = 0x080019FE, Type = 0xFFFFFFF2)  returns 0x0000000E (0000ms, 74699ms total)
T3310 84079:076 JLINK_SetBPEx(Addr = 0x08001A58, Type = 0xFFFFFFF2)  returns 0x0000000F (0000ms, 74699ms total)
T3310 84079:076 JLINK_SetBPEx(Addr = 0x08001A5C, Type = 0xFFFFFFF2) -- BP[0] @ 0x08001A96 converted into FlashBP  returns 0x00000010 (0053ms, 74752ms total)
T3310 84079:129 JLINK_Go() -- CPU_ReadMem(64 bytes @ 0x08001380) -- Updating C cache (64 bytes @ 0x08001380) -- Read from C cache (2 bytes @ 0x0800139C) -- CPU_WriteMem(8 bytes @ 0x20000510) -- Simulated -- Read from C cache (2 bytes @ 0x0800139E) -- CPU_ReadMem(64 bytes @ 0x080013C0) -- Updating C cache (64 bytes @ 0x080013C0) -- Read from C cache (4 bytes @ 0x080013C8) -- Simulated -- Read from C cache (2 bytes @ 0x080013A0) -- Read from C cache (4 bytes @ 0x080013C4) -- Simulated
 -- Read from C cache (2 bytes @ 0x080013A2) -- CPU_WriteMem(4 bytes @ 0x20000008) -- Simulated -- Read from C cache (2 bytes @ 0x080013A4) -- Simulated -- Read from C cache (2 bytes @ 0x080013A6) -- Simulated -- Read from C cache (2 bytes @ 0x080013A8) -- CPU_WriteMem(4 bytes @ 0x2000000C) -- Simulated -- Read from C cache (2 bytes @ 0x080013AA) -- Simulated -- Read from C cache (2 bytes @ 0x080013AC) -- CPU_WriteMem(4 bytes @ 0x20000010) -- Simulated -- Read from C cache (2 bytes @ 0x080013AE)
 -- CPU_WriteMem(4 bytes @ 0x20000014) -- Simulated -- CPU_ReadMem(4 bytes @ 0xE000ED90) -- CPU_ReadMem(4 bytes @ 0xE000ED94) -- Start of preparing flash programming -- Calculating RAM usage -- RAM usage = 6308 Bytes -- Preserving CPU registers -- Preparing memory -- Preparing target -- Preserving target RAM temporarily used for programming -- Downloading RAMCode -- Checking target RAM -- Preparing RAMCode -- End of preparing flash programming -- CPU_ReadMem(128 bytes @ 0x08001A80)
 -- Updating flash cache (128 bytes @ 0x08001A80) -- Programming range 0x08001A80 - 0x08001AFF (001 Sector, 128 Bytes) -- Start of restoring -- Restoring RAMCode -- Restoring target memory -- Restore target -- Restore memory -- Restoring CPU registers -- End of restoring -- CPU_WriteMem(4 bytes @ 0xE0002000) -- CPU_WriteMem(4 bytes @ 0xE0002000) -- CPU_WriteMem(4 bytes @ 0xE0002000) -- CPU_WriteMem(4 bytes @ 0xE0002000) -- CPU_ReadMem(4 bytes @ 0xE0001000) -- CPU_WriteMem(4 bytes @ 0xE0001000)
 -- CPU_WriteMem(4 bytes @ 0xE0002008) -- CPU_WriteMem(4 bytes @ 0xE000200C) -- CPU_WriteMem(4 bytes @ 0xE0002010) -- CPU_WriteMem(4 bytes @ 0xE0002014) (0235ms, 74987ms total)
T3310 84079:464 JLINK_IsHalted()  returns TRUE (0003ms, 74990ms total)
T3310 84079:467 JLINK_Halt()  returns 0x00 (0000ms, 74987ms total)
T3310 84079:467 JLINK_IsHalted()  returns TRUE (0000ms, 74987ms total)
T3310 84079:467 JLINK_IsHalted()  returns TRUE (0000ms, 74987ms total)
T3310 84079:467 JLINK_IsHalted()  returns TRUE (0000ms, 74987ms total)
T3310 84079:467 JLINK_ReadReg(R15 (PC))  returns 0x08001A5C (0000ms, 74987ms total)
T3310 84079:467 JLINK_ReadReg(XPSR)  returns 0x41000000 (0000ms, 74987ms total)
T3310 84079:467 JLINK_ClrBPEx(BPHandle = 0x0000000C)  returns 0x00 (0000ms, 74987ms total)
T3310 84079:467 JLINK_ClrBPEx(BPHandle = 0x0000000D)  returns 0x00 (0000ms, 74987ms total)
T3310 84079:467 JLINK_ClrBPEx(BPHandle = 0x0000000E)  returns 0x00 (0000ms, 74987ms total)
T3310 84079:467 JLINK_ClrBPEx(BPHandle = 0x0000000F)  returns 0x00 (0000ms, 74987ms total)
T3310 84079:467 JLINK_ClrBPEx(BPHandle = 0x00000010)  returns 0x00 (0000ms, 74987ms total)
T3310 84079:467 JLINK_ReadMemU32(0xE000ED30, 0x0001 Items, ...) -- CPU_ReadMem(4 bytes @ 0xE000ED30) - Data: 02 00 00 00  returns 0x01 (0001ms, 74988ms total)
T3310 84079:468 JLINK_ReadMemU32(0xE0001028, 0x0001 Items, ...) -- CPU_ReadMem(4 bytes @ 0xE0001028) - Data: 00 00 00 00  returns 0x01 (0001ms, 74989ms total)
T3310 84079:469 JLINK_ReadMemU32(0xE0001038, 0x0001 Items, ...) -- CPU_ReadMem(4 bytes @ 0xE0001038) - Data: 00 00 00 00  returns 0x01 (0001ms, 74990ms total)
T3310 84079:470 JLINK_ReadReg(R0)  returns 0x00000000 (0000ms, 74990ms total)
T3310 84079:470 JLINK_ReadReg(R1)  returns 0x006000C0 (0000ms, 74990ms total)
T3310 84079:470 JLINK_ReadReg(R2)  returns 0x00000000 (0000ms, 74990ms total)
T3310 84079:470 JLINK_ReadReg(R3)  returns 0x01FFFFFF (0000ms, 74990ms total)
T3310 84079:470 JLINK_ReadReg(R4)  returns 0x40021000 (0000ms, 74990ms total)
T3310 84079:470 JLINK_ReadReg(R5)  returns 0x00000001 (0000ms, 74990ms total)
T3310 84079:470 JLINK_ReadReg(R6)  returns 0x00000100 (0000ms, 74990ms total)
T3310 84079:470 JLINK_ReadReg(R7)  returns 0x50000000 (0000ms, 74990ms total)
T3310 84079:470 JLINK_ReadReg(R8)  returns 0xFFFFFFFF (0000ms, 74990ms total)
T3310 84079:470 JLINK_ReadReg(R9)  returns 0xFFFFFFFF (0000ms, 74990ms total)
T3310 84079:470 JLINK_ReadReg(R10)  returns 0xFFFFFFFF (0000ms, 74990ms total)
T3310 84079:470 JLINK_ReadReg(R11)  returns 0xFFFFFFFF (0000ms, 74990ms total)
T3310 84079:470 JLINK_ReadReg(R12)  returns 0xEBFDFC2F (0000ms, 74990ms total)
T3310 84079:470 JLINK_ReadReg(R13 (SP))  returns 0x20000518 (0000ms, 74990ms total)
T3310 84079:470 JLINK_ReadReg(R14)  returns 0x080015F5 (0000ms, 74990ms total)
T3310 84079:470 JLINK_ReadReg(R15 (PC))  returns 0x08001A5C (0000ms, 74990ms total)
T3310 84079:470 JLINK_ReadReg(XPSR)  returns 0x41000000 (0000ms, 74990ms total)
T3310 84079:470 JLINK_ReadReg(MSP)  returns 0x20000518 (0000ms, 74990ms total)
T3310 84079:470 JLINK_ReadReg(PSP)  returns 0xFFFFFFFC (0000ms, 74990ms total)
T3310 84079:470 JLINK_ReadReg(CFBP)  returns 0x00000000 (0000ms, 74990ms total)
T1FF8 84079:473 JLINK_ReadMemEx(0x08001A5C, 0x003C Bytes, ..., Flags = 0x02000000) -- CPU_ReadMem(128 bytes @ 0x08001A40) -- Updating C cache (128 bytes @ 0x08001A40) -- Read from C cache (60 bytes @ 0x08001A5C) -- Merging zombie BP[0]: 0x7808 @ 0x08001A96 - Data: 14 48 00 68 01 68 10 22 11 43 01 60 11 4C 14 22 ...  returns 0x3C (0001ms, 74991ms total)
T3310 84083:252 JLINK_ReadMemEx(0x08001A5C, 0x0002 Bytes, ..., Flags = 0x02000000) -- Read from C cache (2 bytes @ 0x08001A5C) - Data: 14 48  returns 0x02 (0000ms, 74991ms total)
T3310 84083:252 JLINK_Step() -- Read from C cache (2 bytes @ 0x08001A5C) -- CPU_ReadMem(4 bytes @ 0xE0001004) -- Read from flash cache (4 bytes @ 0x08001AB0) -- Simulated  returns 0x00 (0003ms, 74994ms total)
T3310 84083:255 JLINK_ReadReg(R15 (PC))  returns 0x08001A5E (0000ms, 74994ms total)
T3310 84083:255 JLINK_ReadReg(XPSR)  returns 0x41000000 (0000ms, 74994ms total)
T3310 84083:255 JLINK_SetBPEx(Addr = 0x08001A96, Type = 0xFFFFFFF2)  returns 0x00000011 (0000ms, 74994ms total)
T3310 84083:255 JLINK_SetBPEx(Addr = 0x080019FA, Type = 0xFFFFFFF2)  returns 0x00000012 (0000ms, 74994ms total)
T3310 84083:255 JLINK_SetBPEx(Addr = 0x080019FE, Type = 0xFFFFFFF2)  returns 0x00000013 (0000ms, 74994ms total)
T3310 84083:255 JLINK_SetBPEx(Addr = 0x08001A58, Type = 0xFFFFFFF2)  returns 0x00000014 (0000ms, 74994ms total)
T3310 84083:255 JLINK_SetBPEx(Addr = 0x08001A5C, Type = 0xFFFFFFF2)  returns 0x00000015 (0000ms, 74994ms total)
T3310 84083:255 JLINK_SetBPEx(Addr = 0x08001A88, Type = 0xFFFFFFF2) -- BP[1] @ 0x080019FA converted into FlashBP  returns 0x00000016 (0000ms, 74994ms total)
T3310 84083:255 JLINK_Go() -- Read from C cache (2 bytes @ 0x08001A5E) -- CPU_ReadMem(64 bytes @ 0x20000000) -- Updating C cache (64 bytes @ 0x20000000) -- Read from C cache (4 bytes @ 0x20000008) -- Simulated -- Read from C cache (2 bytes @ 0x08001A60) -- Not simulated -- CPU_ReadMem(4 bytes @ 0xE000ED90) -- CPU_ReadMem(4 bytes @ 0xE000ED94) -- Start of preparing flash programming -- Calculating RAM usage -- RAM usage = 6308 Bytes -- Preserving CPU registers -- Preparing memory -- Preparing target
 -- Preserving target RAM temporarily used for programming -- Downloading RAMCode -- Not first flash download, checking target RAM skipped -- Preparing RAMCode -- End of preparing flash programming -- CPU_ReadMem(128 bytes @ 0x08001980) -- Updating flash cache (128 bytes @ 0x08001980) -- Programming range 0x08001980 - 0x080019FF (001 Sector, 128 Bytes) -- Start of restoring -- Restoring RAMCode -- Restoring target memory -- Restore target -- Restore memory -- Restoring CPU registers -- End of restoring
 -- CPU_WriteMem(4 bytes @ 0xE0002000) -- CPU_WriteMem(4 bytes @ 0xE0002000) -- CPU_WriteMem(4 bytes @ 0xE0002000) -- CPU_WriteMem(4 bytes @ 0xE0002000) -- CPU_ReadMem(4 bytes @ 0xE0001000) -- CPU_WriteMem(4 bytes @ 0xE0001000) -- CPU_WriteMem(4 bytes @ 0xE0002008) -- CPU_WriteMem(4 bytes @ 0xE000200C) -- CPU_WriteMem(4 bytes @ 0xE0002010) -- CPU_WriteMem(4 bytes @ 0xE0002014) (0121ms, 75115ms total)
T3310 84083:476 JLINK_IsHalted()  returns TRUE (0003ms, 75118ms total)
T3310 84083:479 JLINK_Halt()  returns 0x00 (0000ms, 75115ms total)
T3310 84083:479 JLINK_IsHalted()  returns TRUE (0000ms, 75115ms total)
T3310 84083:479 JLINK_IsHalted()  returns TRUE (0000ms, 75115ms total)
T3310 84083:479 JLINK_IsHalted()  returns TRUE (0000ms, 75115ms total)
T3310 84083:479 JLINK_ReadReg(R15 (PC))  returns 0x08001A88 (0000ms, 75115ms total)
T3310 84083:479 JLINK_ReadReg(XPSR)  returns 0x61000000 (0000ms, 75115ms total)
T3310 84083:479 JLINK_ClrBPEx(BPHandle = 0x00000011)  returns 0x00 (0000ms, 75115ms total)
T3310 84083:479 JLINK_ClrBPEx(BPHandle = 0x00000012)  returns 0x00 (0000ms, 75115ms total)
T3310 84083:479 JLINK_ClrBPEx(BPHandle = 0x00000013)  returns 0x00 (0000ms, 75115ms total)
T3310 84083:479 JLINK_ClrBPEx(BPHandle = 0x00000014)  returns 0x00 (0000ms, 75115ms total)
T3310 84083:479 JLINK_ClrBPEx(BPHandle = 0x00000015)  returns 0x00 (0000ms, 75115ms total)
T3310 84083:479 JLINK_ClrBPEx(BPHandle = 0x00000016)  returns 0x00 (0000ms, 75115ms total)
T3310 84083:479 JLINK_ReadMemU32(0xE000ED30, 0x0001 Items, ...) -- CPU_ReadMem(4 bytes @ 0xE000ED30) - Data: 02 00 00 00  returns 0x01 (0001ms, 75116ms total)
T3310 84083:480 JLINK_ReadMemU32(0xE0001028, 0x0001 Items, ...) -- CPU_ReadMem(4 bytes @ 0xE0001028) - Data: 00 00 00 00  returns 0x01 (0001ms, 75117ms total)
T3310 84083:481 JLINK_ReadMemU32(0xE0001038, 0x0001 Items, ...) -- CPU_ReadMem(4 bytes @ 0xE0001038) - Data: 00 00 00 00  returns 0x01 (0001ms, 75118ms total)
T3310 84083:482 JLINK_ReadReg(R0)  returns 0x00000000 (0000ms, 75118ms total)
T3310 84083:482 JLINK_ReadReg(R1)  returns 0x000000C1 (0000ms, 75118ms total)
T3310 84083:482 JLINK_ReadReg(R2)  returns 0x00000080 (0000ms, 75118ms total)
T3310 84083:482 JLINK_ReadReg(R3)  returns 0x01FFFFFF (0000ms, 75118ms total)
T3310 84083:482 JLINK_ReadReg(R4)  returns 0x20000088 (0000ms, 75118ms total)
T3310 84083:482 JLINK_ReadReg(R5)  returns 0x000000FD (0000ms, 75118ms total)
T3310 84083:482 JLINK_ReadReg(R6)  returns 0x00000100 (0000ms, 75118ms total)
T3310 84083:482 JLINK_ReadReg(R7)  returns 0x50000000 (0000ms, 75118ms total)
T3310 84083:482 JLINK_ReadReg(R8)  returns 0xFFFFFFFF (0000ms, 75118ms total)
T3310 84083:482 JLINK_ReadReg(R9)  returns 0xFFFFFFFF (0000ms, 75118ms total)
T3310 84083:482 JLINK_ReadReg(R10)  returns 0xFFFFFFFF (0000ms, 75118ms total)
T3310 84083:482 JLINK_ReadReg(R11)  returns 0xFFFFFFFF (0000ms, 75118ms total)
T3310 84083:482 JLINK_ReadReg(R12)  returns 0x2000008A (0000ms, 75118ms total)
T3310 84083:482 JLINK_ReadReg(R13 (SP))  returns 0x20000518 (0000ms, 75118ms total)
T3310 84083:482 JLINK_ReadReg(R14)  returns 0x0800045D (0000ms, 75118ms total)
T3310 84083:482 JLINK_ReadReg(R15 (PC))  returns 0x08001A88 (0000ms, 75118ms total)
T3310 84083:482 JLINK_ReadReg(XPSR)  returns 0x61000000 (0000ms, 75118ms total)
T3310 84083:482 JLINK_ReadReg(MSP)  returns 0x20000518 (0000ms, 75118ms total)
T3310 84083:482 JLINK_ReadReg(PSP)  returns 0xFFFFFFFC (0000ms, 75118ms total)
T3310 84083:482 JLINK_ReadReg(CFBP)  returns 0x00000000 (0000ms, 75118ms total)
T1FF8 84091:822 JLINK_ReadMemEx(0x08001A5C, 0x003C Bytes, ..., Flags = 0x02000000) -- CPU_ReadMem(128 bytes @ 0x08001A40) -- Updating C cache (128 bytes @ 0x08001A40) -- Read from C cache (60 bytes @ 0x08001A5C) -- Merging zombie BP[0]: 0x7808 @ 0x08001A96 - Data: 14 48 00 68 01 68 10 22 11 43 01 60 11 4C 14 22 ...  returns 0x3C (0001ms, 75119ms total)
T3310 84109:299 JLINK_ReadMemEx(0x08001A88, 0x0002 Bytes, ..., Flags = 0x02000000) -- Read from flash cache (2 bytes @ 0x08001A88) - Data: 21 46  returns 0x02 (0000ms, 75119ms total)
T3310 84109:299 JLINK_Step() -- Read from flash cache (2 bytes @ 0x08001A88) -- CPU_ReadMem(4 bytes @ 0xE0001004) -- Simulated  returns 0x00 (0002ms, 75121ms total)
T3310 84109:301 JLINK_ReadReg(R15 (PC))  returns 0x08001A8A (0001ms, 75122ms total)
T3310 84109:302 JLINK_ReadReg(XPSR)  returns 0x61000000 (0000ms, 75122ms total)
T3310 84109:302 JLINK_ReadReg(R0)  returns 0x00000000 (0000ms, 75122ms total)
T3310 84109:302 JLINK_ReadReg(R1)  returns 0x20000088 (0000ms, 75122ms total)
T3310 84109:302 JLINK_ReadReg(R2)  returns 0x00000080 (0000ms, 75122ms total)
T3310 84109:302 JLINK_ReadReg(R3)  returns 0x01FFFFFF (0000ms, 75122ms total)
T3310 84109:302 JLINK_ReadReg(R4)  returns 0x20000088 (0000ms, 75122ms total)
T3310 84109:302 JLINK_ReadReg(R5)  returns 0x000000FD (0000ms, 75122ms total)
T3310 84109:302 JLINK_ReadReg(R6)  returns 0x00000100 (0000ms, 75122ms total)
T3310 84109:302 JLINK_ReadReg(R7)  returns 0x50000000 (0000ms, 75122ms total)
T3310 84109:302 JLINK_ReadReg(R8)  returns 0xFFFFFFFF (0000ms, 75122ms total)
T3310 84109:302 JLINK_ReadReg(R9)  returns 0xFFFFFFFF (0000ms, 75122ms total)
T3310 84109:302 JLINK_ReadReg(R10)  returns 0xFFFFFFFF (0000ms, 75122ms total)
T3310 84109:302 JLINK_ReadReg(R11)  returns 0xFFFFFFFF (0000ms, 75122ms total)
T3310 84109:302 JLINK_ReadReg(R12)  returns 0x2000008A (0000ms, 75122ms total)
T3310 84109:302 JLINK_ReadReg(R13 (SP))  returns 0x20000518 (0000ms, 75122ms total)
T3310 84109:302 JLINK_ReadReg(R14)  returns 0x0800045D (0000ms, 75122ms total)
T3310 84109:302 JLINK_ReadReg(R15 (PC))  returns 0x08001A8A (0000ms, 75122ms total)
T3310 84109:302 JLINK_ReadReg(XPSR)  returns 0x61000000 (0000ms, 75122ms total)
T3310 84109:302 JLINK_ReadReg(MSP)  returns 0x20000518 (0000ms, 75122ms total)
T3310 84109:302 JLINK_ReadReg(PSP)  returns 0xFFFFFFFC (0000ms, 75122ms total)
T3310 84109:302 JLINK_ReadReg(CFBP)  returns 0x00000000 (0000ms, 75122ms total)
T1FF8 84109:308 JLINK_ReadMemEx(0x08001A8A, 0x0002 Bytes, ..., Flags = 0x02000000) -- Read from flash cache (2 bytes @ 0x08001A8A) - Data: 08 78  returns 0x02 (0000ms, 75122ms total)
T1FF8 84109:308 JLINK_ReadMemEx(0x08001A8C, 0x003C Bytes, ..., Flags = 0x02000000) -- Read from flash cache (60 bytes @ 0x08001A8C) -- Merging zombie BP[0]: 0x7808 @ 0x08001A96 - Data: 80 07 FC D5 08 78 28 40 08 70 08 78 40 08 40 00 ...  returns 0x3C (0001ms, 75123ms total)
T3310 84124:659 JLINK_ReadMemEx(0x08001A8A, 0x0002 Bytes, ..., Flags = 0x02000000) -- Read from flash cache (2 bytes @ 0x08001A8A) - Data: 08 78  returns 0x02 (0000ms, 75123ms total)
T3310 84124:659 JLINK_SetBPEx(Addr = 0x08001A5C, Type = 0xFFFFFFF2)  returns 0x00000017 (0000ms, 75123ms total)
T3310 84124:659 JLINK_Go() -- Read from flash cache (2 bytes @ 0x08001A8A) -- CPU_ReadMem(64 bytes @ 0x20000080) -- Updating C cache (64 bytes @ 0x20000080) -- Read from C cache (1 bytes @ 0x20000088) -- Simulated -- Read from flash cache (2 bytes @ 0x08001A8C) -- Simulated -- Read from flash cache (2 bytes @ 0x08001A8E) -- Simulated -- Read from flash cache (2 bytes @ 0x08001A8A) -- Read from C cache (1 bytes @ 0x20000088) -- Simulated -- Read from flash cache (2 bytes @ 0x08001A8C) -- Simulated
 -- Read from flash cache (2 bytes @ 0x08001A8E) -- Simulated -- Read from flash cache (2 bytes @ 0x08001A8A) -- Read from C cache (1 bytes @ 0x20000088) -- Simulated -- Read from flash cache (2 bytes @ 0x08001A8C) -- Simulated -- Read from flash cache (2 bytes @ 0x08001A8E) -- Simulated -- Read from flash cache (2 bytes @ 0x08001A8A) -- Read from C cache (1 bytes @ 0x20000088) -- Simulated -- CPU_ReadMem(4 bytes @ 0xE000ED90) -- CPU_ReadMem(4 bytes @ 0xE000ED94) -- Start of preparing flash programming
 -- Calculating RAM usage -- RAM usage = 6308 Bytes -- Preserving CPU registers -- Preparing memory -- Preparing target -- Preserving target RAM temporarily used for programming -- Downloading RAMCode -- Not first flash download, checking target RAM skipped -- Preparing RAMCode -- End of preparing flash programming -- Read from flash cache (128 bytes @ 0x08001A80) -- Programming range 0x08001A80 - 0x08001AFF (001 Sector, 128 Bytes) -- Read from flash cache (128 bytes @ 0x08001980)
 -- Programming range 0x08001980 - 0x080019FF (001 Sector, 128 Bytes) -- Start of restoring -- Restoring RAMCode -- Restoring target memory -- Restore target -- Restore memory -- Restoring CPU registers -- End of restoring -- CPU_WriteMem(4 bytes @ 0xE0002000) -- CPU_ReadMem(4 bytes @ 0xE0001000) -- CPU_WriteMem(4 bytes @ 0xE0001000) -- CPU_WriteMem(4 bytes @ 0xE0002008) -- CPU_WriteMem(4 bytes @ 0xE000200C) -- CPU_WriteMem(4 bytes @ 0xE0002010) -- CPU_WriteMem(4 bytes @ 0xE0002014)
 (0130ms, 75253ms total)
T3310 84124:889 JLINK_IsHalted()  returns FALSE (0001ms, 75254ms total)
T3310 84124:990 JLINK_IsHalted()  returns FALSE (0001ms, 75254ms total)
T3310 84125:091 JLINK_IsHalted()  returns FALSE (0001ms, 75254ms total)
T3310 84125:192 JLINK_IsHalted()  returns FALSE (0000ms, 75253ms total)
T3310 84125:292 JLINK_IsHalted()  returns FALSE (0001ms, 75254ms total)
T3310 84125:393 JLINK_IsHalted()  returns FALSE (0001ms, 75254ms total)
T3310 84125:494 JLINK_IsHalted()  returns FALSE (0001ms, 75254ms total)
T3310 84125:595 JLINK_IsHalted()  returns FALSE (0001ms, 75254ms total)
T3310 84125:696 JLINK_IsHalted()  returns FALSE (0000ms, 75253ms total)
T3310 84125:796 JLINK_IsHalted()  returns FALSE (0001ms, 75254ms total)
T3310 84125:897 JLINK_IsHalted()  returns FALSE (0001ms, 75254ms total)
T3310 84125:998 JLINK_IsHalted()  returns FALSE (0001ms, 75254ms total)
T3310 84126:099 JLINK_IsHalted()  returns FALSE (0001ms, 75254ms total)
T3310 84126:200 JLINK_IsHalted()  returns FALSE (0000ms, 75253ms total)
T3310 84126:300 JLINK_IsHalted()  returns FALSE (0001ms, 75254ms total)
T3310 84126:403 JLINK_IsHalted()  returns FALSE (0001ms, 75254ms total)
T3310 84126:504 JLINK_IsHalted()  returns FALSE (0001ms, 75254ms total)
T3310 84126:605 JLINK_IsHalted()  returns FALSE (0001ms, 75254ms total)
T3310 84126:706 JLINK_IsHalted()  returns FALSE (0001ms, 75254ms total)
T3310 84126:807 JLINK_IsHalted()  returns FALSE (0001ms, 75254ms total)
T3310 84126:908 JLINK_IsHalted()  returns FALSE (0001ms, 75254ms total)
T3310 84127:009 JLINK_IsHalted()  returns FALSE (0001ms, 75254ms total)
T3310 84127:110 JLINK_IsHalted()  returns FALSE (0001ms, 75254ms total)
T3310 84127:211 JLINK_IsHalted()  returns FALSE (0001ms, 75254ms total)
T3310 84127:312 JLINK_IsHalted()  returns FALSE (0001ms, 75254ms total)
